==========================================
AXI4 Golden Testbench Started
==========================================
ASSERTION PASSED: Reset released
ASSERTION PASSED: ARVALID/ARREADY handshake
ASSERTION PASSED: AWVALID/AWREADY handshake
[115000] Read Address: 0x10000000, LEN=0
[115000] Write Address: 0x10000000, LEN=3
ASSERTION PASSED: ARVALID activity detected
ASSERTION PASSED: AWVALID activity detected
ASSERTION PASSED: ARVALID/ARREADY handshake
ASSERTION PASSED: AWVALID/AWREADY handshake
[125000] Read Address: 0x10000000, LEN=0
[125000] Write Address: 0x10000000, LEN=3
ASSERTION PASSED: ARVALID/ARREADY handshake
[135000] Read Address: 0x10000000, LEN=0
ASSERTION PASSED: ARVALID/ARREADY handshake
[145000] Read Address: 0x10000000, LEN=0
ASSERTION PASSED: ARVALID/ARREADY handshake
[155000] Read Address: 0x10000000, LEN=0
ASSERTION PASSED: ARVALID/ARREADY handshake
[165000] Read Address: 0x10000000, LEN=0
ASSERTION PASSED: ARVALID/ARREADY handshake
[175000] Read Address: 0x10000000, LEN=0
ASSERTION PASSED: ARVALID/ARREADY handshake
[185000] Read Address: 0x10000000, LEN=0
ASSERTION PASSED: ARVALID/ARREADY handshake
[195000] Read Address: 0x10000000, LEN=0
ASSERTION PASSED: ARVALID/ARREADY handshake
[205000] Read Address: 0x10000000, LEN=0
ASSERTION PASSED: ARVALID/ARREADY handshake
[215000] Read Address: 0x10000000, LEN=0
ASSERTION PASSED: ARVALID/ARREADY handshake
[225000] Read Address: 0x10000000, LEN=0
ASSERTION PASSED: ARVALID/ARREADY handshake
[235000] Read Address: 0x10000000, LEN=0
ASSERTION PASSED: ARVALID/ARREADY handshake
[245000] Read Address: 0x10000000, LEN=0
ASSERTION PASSED: ARVALID/ARREADY handshake
[255000] Read Address: 0x10000000, LEN=0
ASSERTION PASSED: ARVALID/ARREADY handshake
[265000] Read Address: 0x10000000, LEN=0
ASSERTION PASSED: ARVALID/ARREADY handshake
[275000] Read Address: 0x10000000, LEN=0
ASSERTION PASSED: ARVALID/ARREADY handshake
[285000] Read Address: 0x10000000, LEN=0
ASSERTION PASSED: ARVALID/ARREADY handshake
[295000] Read Address: 0x10000000, LEN=0
ASSERTION PASSED: ARVALID/ARREADY handshake
[305000] Read Address: 0x10000000, LEN=0
ASSERTION PASSED: ARVALID/ARREADY handshake
[315000] Read Address: 0x10000000, LEN=0
ASSERTION PASSED: ARVALID/ARREADY handshake
[325000] Read Address: 0x10000000, LEN=0
ASSERTION PASSED: ARVALID/ARREADY handshake
[335000] Read Address: 0x10000000, LEN=0
ASSERTION PASSED: ARVALID/ARREADY handshake
[345000] Read Address: 0x10000000, LEN=0
ASSERTION PASSED: ARVALID/ARREADY handshake
[355000] Read Address: 0x10000000, LEN=0
ASSERTION PASSED: ARVALID/ARREADY handshake
[365000] Read Address: 0x10000000, LEN=0
ASSERTION PASSED: ARVALID/ARREADY handshake
[375000] Read Address: 0x10000000, LEN=0
ASSERTION PASSED: ARVALID/ARREADY handshake
[385000] Read Address: 0x10000000, LEN=0
ASSERTION PASSED: ARVALID/ARREADY handshake
[395000] Read Address: 0x10000000, LEN=0
ASSERTION PASSED: ARVALID/ARREADY handshake
[405000] Read Address: 0x10000000, LEN=0
ASSERTION PASSED: ARVALID/ARREADY handshake
[415000] Read Address: 0x10000000, LEN=0
ASSERTION PASSED: ARVALID/ARREADY handshake
[425000] Read Address: 0x10000000, LEN=0
ASSERTION PASSED: ARVALID/ARREADY handshake
[435000] Read Address: 0x10000000, LEN=0
ASSERTION PASSED: ARVALID/ARREADY handshake
[445000] Read Address: 0x10000000, LEN=0
ASSERTION PASSED: ARVALID/ARREADY handshake
[455000] Read Address: 0x10000000, LEN=0
ASSERTION PASSED: ARVALID/ARREADY handshake
[465000] Read Address: 0x10000000, LEN=0
ASSERTION PASSED: ARVALID/ARREADY handshake
[475000] Read Address: 0x10000000, LEN=0
ASSERTION PASSED: ARVALID/ARREADY handshake
[485000] Read Address: 0x10000000, LEN=0
ASSERTION PASSED: ARVALID/ARREADY handshake
[495000] Read Address: 0x10000000, LEN=0
ASSERTION PASSED: ARVALID/ARREADY handshake
[505000] Read Address: 0x10000000, LEN=0
ASSERTION PASSED: ARVALID/ARREADY handshake
[515000] Read Address: 0x10000000, LEN=0
ASSERTION PASSED: ARVALID/ARREADY handshake
[525000] Read Address: 0x10000000, LEN=0
ASSERTION PASSED: ARVALID/ARREADY handshake
[535000] Read Address: 0x10000000, LEN=0
ASSERTION PASSED: ARVALID/ARREADY handshake
[545000] Read Address: 0x10000000, LEN=0
ASSERTION PASSED: ARVALID/ARREADY handshake
[555000] Read Address: 0x10000000, LEN=0
ASSERTION PASSED: ARVALID/ARREADY handshake
[565000] Read Address: 0x10000000, LEN=0
ASSERTION PASSED: ARVALID/ARREADY handshake
[575000] Read Address: 0x10000000, LEN=0
ASSERTION PASSED: ARVALID/ARREADY handshake
[585000] Read Address: 0x10000000, LEN=0
ASSERTION PASSED: ARVALID/ARREADY handshake
[595000] Read Address: 0x10000000, LEN=0
ASSERTION PASSED: ARVALID/ARREADY handshake
[605000] Read Address: 0x10000000, LEN=0
ASSERTION PASSED: ARVALID/ARREADY handshake
[615000] Read Address: 0x10000000, LEN=0
ASSERTION PASSED: ARVALID/ARREADY handshake
[625000] Read Address: 0x10000000, LEN=0
ASSERTION PASSED: ARVALID/ARREADY handshake
[635000] Read Address: 0x10000000, LEN=0
ASSERTION PASSED: ARVALID/ARREADY handshake
[645000] Read Address: 0x10000000, LEN=0
ASSERTION PASSED: ARVALID/ARREADY handshake
[655000] Read Address: 0x10000000, LEN=0
ASSERTION PASSED: ARVALID/ARREADY handshake
[665000] Read Address: 0x10000000, LEN=0
ASSERTION PASSED: ARVALID/ARREADY handshake
[675000] Read Address: 0x10000000, LEN=0
ASSERTION PASSED: ARVALID/ARREADY handshake
[685000] Read Address: 0x10000000, LEN=0
ASSERTION PASSED: ARVALID/ARREADY handshake
[695000] Read Address: 0x10000000, LEN=0
ASSERTION PASSED: ARVALID/ARREADY handshake
[705000] Read Address: 0x10000000, LEN=0
ASSERTION PASSED: ARVALID/ARREADY handshake
[715000] Read Address: 0x10000000, LEN=0
ASSERTION PASSED: ARVALID/ARREADY handshake
[725000] Read Address: 0x10000000, LEN=0
ASSERTION PASSED: ARVALID/ARREADY handshake
[735000] Read Address: 0x10000000, LEN=0
ASSERTION PASSED: ARVALID/ARREADY handshake
[745000] Read Address: 0x10000000, LEN=0
ASSERTION PASSED: ARVALID/ARREADY handshake
[755000] Read Address: 0x10000000, LEN=0
ASSERTION PASSED: ARVALID/ARREADY handshake
[765000] Read Address: 0x10000000, LEN=0
ASSERTION PASSED: ARVALID/ARREADY handshake
[775000] Read Address: 0x10000000, LEN=0
ASSERTION PASSED: ARVALID/ARREADY handshake
[785000] Read Address: 0x10000000, LEN=0
ASSERTION PASSED: ARVALID/ARREADY handshake
[795000] Read Address: 0x10000000, LEN=0
ASSERTION PASSED: ARVALID/ARREADY handshake
[805000] Read Address: 0x10000000, LEN=0
ASSERTION PASSED: ARVALID/ARREADY handshake
[815000] Read Address: 0x10000000, LEN=0
ASSERTION PASSED: ARVALID/ARREADY handshake
[825000] Read Address: 0x10000000, LEN=0
ASSERTION PASSED: ARVALID/ARREADY handshake
[835000] Read Address: 0x10000000, LEN=0
ASSERTION PASSED: ARVALID/ARREADY handshake
[845000] Read Address: 0x10000000, LEN=0
ASSERTION PASSED: ARVALID/ARREADY handshake
[855000] Read Address: 0x10000000, LEN=0
ASSERTION PASSED: ARVALID/ARREADY handshake
[865000] Read Address: 0x10000000, LEN=0
ASSERTION PASSED: ARVALID/ARREADY handshake
[875000] Read Address: 0x10000000, LEN=0
ASSERTION PASSED: ARVALID/ARREADY handshake
[885000] Read Address: 0x10000000, LEN=0
ASSERTION PASSED: ARVALID/ARREADY handshake
[895000] Read Address: 0x10000000, LEN=0
ASSERTION PASSED: ARVALID/ARREADY handshake
[905000] Read Address: 0x10000000, LEN=0
ASSERTION PASSED: ARVALID/ARREADY handshake
[915000] Read Address: 0x10000000, LEN=0
ASSERTION PASSED: ARVALID/ARREADY handshake
[925000] Read Address: 0x10000000, LEN=0
ASSERTION PASSED: ARVALID/ARREADY handshake
[935000] Read Address: 0x10000000, LEN=0
ASSERTION PASSED: ARVALID/ARREADY handshake
[945000] Read Address: 0x10000000, LEN=0
ASSERTION PASSED: ARVALID/ARREADY handshake
[955000] Read Address: 0x10000000, LEN=0
ASSERTION PASSED: ARVALID/ARREADY handshake
[965000] Read Address: 0x10000000, LEN=0
ASSERTION PASSED: ARVALID/ARREADY handshake
[975000] Read Address: 0x10000000, LEN=0
ASSERTION PASSED: ARVALID/ARREADY handshake
[985000] Read Address: 0x10000000, LEN=0
ASSERTION PASSED: ARVALID/ARREADY handshake
[995000] Read Address: 0x10000000, LEN=0
ASSERTION PASSED: ARVALID/ARREADY handshake
[1005000] Read Address: 0x10000000, LEN=0
ASSERTION PASSED: ARVALID/ARREADY handshake
[1015000] Read Address: 0x10000000, LEN=0
ASSERTION PASSED: ARVALID/ARREADY handshake
[1